Freq.	V(n001)-V(n002)	I(D1)
1.00000000000000e+01	(-5.92726430852379e+01dB,-6.77455912897563e-05°)	(-8.00949629205538e+01dB,7.44726880006216e-07°)
1.00230523807790e+01	(-5.92726430852377e+01dB,-6.79017610064059e-05°)	(-8.00949629205516e+01dB,7.46443652767525e-07°)
1.00461579027839e+01	(-5.92726430852378e+01dB,-6.80582907314342e-05°)	(-8.00949629205516e+01dB,7.48164383099656e-07°)
1.00693166885180e+01	(-5.92726430852380e+01dB,-6.82151812947455e-05°)	(-8.00949629205538e+01dB,7.49889080123026e-07°)
1.00925288607668e+01	(-5.92726430852379e+01dB,-6.83724335281565e-05°)	(-8.00949629205538e+01dB,7.51617752985253e-07°)
1.01157945425990e+01	(-5.92726430852378e+01dB,-6.85300482654039e-05°)	(-8.00949629205516e+01dB,7.53350410848103e-07°)
1.01391138573668e+01	(-5.92726430852378e+01dB,-6.86880263421449e-05°)	(-8.00949629205516e+01dB,7.55087062902820e-07°)
1.01624869287070e+01	(-5.92726430852379e+01dB,-6.88463685959641e-05°)	(-8.00949629205516e+01dB,7.56827718352339e-07°)
1.01859138805412e+01	(-5.92726430852379e+01dB,-6.90050758663773e-05°)	(-8.00949629205516e+01dB,7.58572386425819e-07°)
1.02093948370768e+01	(-5.92726430852380e+01dB,-6.91641489948326e-05°)	(-8.00949629205516e+01dB,7.60321076376922e-07°)
1.02329299228075e+01	(-5.92726430852382e+01dB,-6.93235888247211e-05°)	(-8.00949629205538e+01dB,7.62073797473285e-07°)
1.02565192625141e+01	(-5.92726430852382e+01dB,-6.94833962013783e-05°)	(-8.00949629205538e+01dB,7.63830559008015e-07°)
1.02801629812647e+01	(-5.92726430852380e+01dB,-6.96435719720801e-05°)	(-8.00949629205516e+01dB,7.65591370300631e-07°)
1.03038612044162e+01	(-5.92726430852380e+01dB,-6.98041169860700e-05°)	(-8.00949629205516e+01dB,7.67356240678689e-07°)
1.03276140576140e+01	(-5.92726430852380e+01dB,-6.99650320945401e-05°)	(-8.00949629205516e+01dB,7.69125179504404e-07°)
1.03514216667934e+01	(-5.92726430852382e+01dB,-7.01263181506467e-05°)	(-8.00949629205516e+01dB,7.70898196153963e-07°)
1.03752841581801e+01	(-5.92726430852383e+01dB,-7.02879760095112e-05°)	(-8.00949629205516e+01dB,7.72675300031123e-07°)
1.03992016582906e+01	(-5.92726430852384e+01dB,-7.04500065282281e-05°)	(-8.00949629205538e+01dB,7.74456500553616e-07°)
1.04231742939330e+01	(-5.92726430852383e+01dB,-7.06124105658620e-05°)	(-8.00949629205516e+01dB,7.76241807169036e-07°)
1.04472021922080e+01	(-5.92726430852383e+01dB,-7.07751889834715e-05°)	(-8.00949629205516e+01dB,7.78031229339914e-07°)
1.04712854805090e+01	(-5.92726430852382e+01dB,-7.09383426440864e-05°)	(-8.00949629205516e+01dB,7.79824776555582e-07°)
1.04954242865232e+01	(-5.92726430852382e+01dB,-7.11018724127316e-05°)	(-8.00949629205516e+01dB,7.81622458325472e-07°)
1.05196187382322e+01	(-5.92726430852384e+01dB,-7.12657791564277e-05°)	(-8.00949629205516e+01dB,7.83424284178928e-07°)
1.05438689639126e+01	(-5.92726430852384e+01dB,-7.14300637441904e-05°)	(-8.00949629205516e+01dB,7.85230263669798e-07°)
1.05681750921366e+01	(-5.92726430852386e+01dB,-7.15947270470402e-05°)	(-8.00949629205516e+01dB,7.87040406373373e-07°)
1.05925372517729e+01	(-5.92726430852385e+01dB,-7.17597699380053e-05°)	(-8.00949629205516e+01dB,7.88854721886384e-07°)
1.06169555719872e+01	(-5.92726430852385e+01dB,-7.19251932921290e-05°)	(-8.00949629205516e+01dB,7.90673219828537e-07°)
1.06414301822431e+01	(-5.92726430852388e+01dB,-7.20909979864672e-05°)	(-8.00949629205538e+01dB,7.92495909842706e-07°)
1.06659612123026e+01	(-5.92726430852385e+01dB,-7.22571849000977e-05°)	(-8.00949629205516e+01dB,7.94322801590892e-07°)
1.06905487922266e+01	(-5.92726430852386e+01dB,-7.24237549141316e-05°)	(-8.00949629205516e+01dB,7.96153904757713e-07°)
1.07151930523760e+01	(-5.92726430852388e+01dB,-7.25907089117033e-05°)	(-8.00949629205516e+01dB,7.97989229056105e-07°)
1.07398941234124e+01	(-5.92726430852388e+01dB,-7.27580477779889e-05°)	(-8.00949629205516e+01dB,7.99828784211449e-07°)
1.07646521362983e+01	(-5.92726430852387e+01dB,-7.29257724001979e-05°)	(-8.00949629205516e+01dB,8.01672579982822e-07°)
1.07894672222983e+01	(-5.92726430852387e+01dB,-7.30938836675939e-05°)	(-8.00949629205516e+01dB,8.03520626141554e-07°)
1.08143395129794e+01	(-5.92726430852391e+01dB,-7.32623824714907e-05°)	(-8.00949629205538e+01dB,8.05372932480615e-07°)
1.08392691402120e+01	(-5.92726430852389e+01dB,-7.34312697052386e-05°)	(-8.00949629205516e+01dB,8.07229508833531e-07°)
1.08642562361706e+01	(-5.92726430852389e+01dB,-7.36005462642725e-05°)	(-8.00949629205516e+01dB,8.09090365033491e-07°)
1.08893009333343e+01	(-5.92726430852389e+01dB,-7.37702130460738e-05°)	(-8.00949629205516e+01dB,8.10955510954238e-07°)
1.09144033644875e+01	(-5.92726430852390e+01dB,-7.39402709502023e-05°)	(-8.00949629205516e+01dB,8.12824956475844e-07°)
1.09395636627209e+01	(-5.92726430852390e+01dB,-7.41107208782863e-05°)	(-8.00949629205516e+01dB,8.14698711516667e-07°)
1.09647819614318e+01	(-5.92726430852390e+01dB,-7.42815637340350e-05°)	(-8.00949629205516e+01dB,8.16576786008849e-07°)
1.09900583943252e+01	(-5.92726430852391e+01dB,-7.44528004232409e-05°)	(-8.00949629205516e+01dB,8.18459189909038e-07°)
1.10153930954141e+01	(-5.92726430852392e+01dB,-7.46244318537829e-05°)	(-8.00949629205516e+01dB,8.20345933198387e-07°)
1.10407861990207e+01	(-5.92726430852392e+01dB,-7.47964589356344e-05°)	(-8.00949629205516e+01dB,8.22237025879491e-07°)
1.10662378397766e+01	(-5.92726430852393e+01dB,-7.49688825808643e-05°)	(-8.00949629205538e+01dB,8.24132477982714e-07°)
1.10917481526240e+01	(-5.92726430852392e+01dB,-7.51417037036453e-05°)	(-8.00949629205516e+01dB,8.26032299552924e-07°)
1.11173172728159e+01	(-5.92726430852392e+01dB,-7.53149232202607e-05°)	(-8.00949629205516e+01dB,8.27936500663778e-07°)
1.11429453359173e+01	(-5.92726430852392e+01dB,-7.54885420491032e-05°)	(-8.00949629205516e+01dB,8.29845091409561e-07°)
1.11686324778056e+01	(-5.92726430852393e+01dB,-7.56625611106785e-05°)	(-8.00949629205516e+01dB,8.31758081915390e-07°)
1.11943788346715e+01	(-5.92726430852394e+01dB,-7.58369813276237e-05°)	(-8.00949629205516e+01dB,8.33675482315574e-07°)
1.12201845430196e+01	(-5.92726430852395e+01dB,-7.60118036246922e-05°)	(-8.00949629205516e+01dB,8.35597302782711e-07°)
1.12460497396692e+01	(-5.92726430852394e+01dB,-7.61870289287765e-05°)	(-8.00949629205516e+01dB,8.37523553501649e-07°)
1.12719745617551e+01	(-5.92726430852395e+01dB,-7.63626581689063e-05°)	(-8.00949629205516e+01dB,8.39454244687870e-07°)
1.12979591467279e+01	(-5.92726430852395e+01dB,-7.65386922762463e-05°)	(-8.00949629205516e+01dB,8.41389386578295e-07°)
1.13240036323555e+01	(-5.92726430852396e+01dB,-7.67151321841130e-05°)	(-8.00949629205516e+01dB,8.43328989431289e-07°)
1.13501081567231e+01	(-5.92726430852396e+01dB,-7.68919788279754e-05°)	(-8.00949629205516e+01dB,8.45273063529722e-07°)
1.13762728582343e+01	(-5.92726430852397e+01dB,-7.70692331454548e-05°)	(-8.00949629205516e+01dB,8.47221619180967e-07°)
1.14024978756117e+01	(-5.92726430852397e+01dB,-7.72468960763347e-05°)	(-8.00949629205516e+01dB,8.49174666718435e-07°)
1.14287833478977e+01	(-5.92726430852397e+01dB,-7.74249685625705e-05°)	(-8.00949629205516e+01dB,8.51132216493914e-07°)
1.14551294144553e+01	(-5.92726430852400e+01dB,-7.76034515482822e-05°)	(-8.00949629205538e+01dB,8.53094278888506e-07°)
1.14815362149688e+01	(-5.92726430852399e+01dB,-7.77823459797666e-05°)	(-8.00949629205516e+01dB,8.55060864303907e-07°)
1.15080038894443e+01	(-5.92726430852400e+01dB,-7.79616528055076e-05°)	(-8.00949629205516e+01dB,8.57031983167585e-07°)
1.15345325782109e+01	(-5.92726430852399e+01dB,-7.81413729761707e-05°)	(-8.00949629205516e+01dB,8.59007645929139e-07°)
1.15611224219210e+01	(-5.92726430852400e+01dB,-7.83215074446141e-05°)	(-8.00949629205516e+01dB,8.60987863062882e-07°)
1.15877735615512e+01	(-5.92726430852400e+01dB,-7.85020571658919e-05°)	(-8.00949629205516e+01dB,8.62972645072228e-07°)
1.16144861384034e+01	(-5.92726430852400e+01dB,-7.86830230972640e-05°)	(-8.00949629205516e+01dB,8.64962002474373e-07°)
1.16412602941049e+01	(-5.92726430852402e+01dB,-7.88644061981939e-05°)	(-8.00949629205516e+01dB,8.66955945815614e-07°)
1.16680961706096e+01	(-5.92726430852401e+01dB,-7.90462074303508e-05°)	(-8.00949629205516e+01dB,8.68954485675944e-07°)
1.16949939101987e+01	(-5.92726430852401e+01dB,-7.92284277576337e-05°)	(-8.00949629205516e+01dB,8.70957632643010e-07°)
1.17219536554813e+01	(-5.92726430852401e+01dB,-7.94110681461500e-05°)	(-8.00949629205516e+01dB,8.72965397344281e-07°)
1.17489755493953e+01	(-5.92726430852403e+01dB,-7.95941295642497e-05°)	(-8.00949629205516e+01dB,8.74977790416418e-07°)
1.17760597352080e+01	(-5.92726430852402e+01dB,-7.97776129824960e-05°)	(-8.00949629205516e+01dB,8.76994822537429e-07°)
1.18032063565173e+01	(-5.92726430852404e+01dB,-7.99615193737081e-05°)	(-8.00949629205516e+01dB,8.79016504396047e-07°)
1.18304155572516e+01	(-5.92726430852404e+01dB,-8.01458497129359e-05°)	(-8.00949629205516e+01dB,8.81042846711635e-07°)
1.18576874816716e+01	(-5.92726430852405e+01dB,-8.03306049774799e-05°)	(-8.00949629205516e+01dB,8.83073860229591e-07°)
1.18850222743701e+01	(-5.92726430852403e+01dB,-8.05157861468914e-05°)	(-8.00949629205516e+01dB,8.85109555721351e-07°)
1.19124200802737e+01	(-5.92726430852405e+01dB,-8.07013942029898e-05°)	(-8.00949629205516e+01dB,8.87149943972135e-07°)
1.19398810446427e+01	(-5.92726430852406e+01dB,-8.08874301298462e-05°)	(-8.00949629205516e+01dB,8.89195035802388e-07°)
1.19674053130724e+01	(-5.92726430852406e+01dB,-8.10738949138048e-05°)	(-8.00949629205516e+01dB,8.91244842057061e-07°)
1.19949930314937e+01	(-5.92726430852406e+01dB,-8.12607895434842e-05°)	(-8.00949629205516e+01dB,8.93299373602546e-07°)
1.20226443461741e+01	(-5.92726430852407e+01dB,-8.14481150097781e-05°)	(-8.00949629205516e+01dB,8.95358641335865e-07°)
1.20503594037179e+01	(-5.92726430852407e+01dB,-8.16358723058728e-05°)	(-8.00949629205516e+01dB,8.97422656167827e-07°)
1.20781383510677e+01	(-5.92726430852408e+01dB,-8.18240624272354e-05°)	(-8.00949629205516e+01dB,8.99491429045995e-07°)
1.21059813355048e+01	(-5.92726430852409e+01dB,-8.20126863716313e-05°)	(-8.00949629205516e+01dB,9.01564970939377e-07°)
1.21338885046497e+01	(-5.92726430852408e+01dB,-8.22017451391220e-05°)	(-8.00949629205516e+01dB,9.03643292843014e-07°)
1.21618600064636e+01	(-5.92726430852408e+01dB,-8.23912397320855e-05°)	(-8.00949629205516e+01dB,9.05726405770329e-07°)
1.21898959892486e+01	(-5.92726430852410e+01dB,-8.25811711552041e-05°)	(-8.00949629205516e+01dB,9.07814320766906e-07°)
1.22179966016487e+01	(-5.92726430852409e+01dB,-8.27715404154674e-05°)	(-8.00949629205516e+01dB,9.09907048907428e-07°)
1.22461619926504e+01	(-5.92726430852411e+01dB,-8.29623485222003e-05°)	(-8.00949629205516e+01dB,9.12004601283426e-07°)
1.22743923115840e+01	(-5.92726430852412e+01dB,-8.31535964870446e-05°)	(-8.00949629205516e+01dB,9.14106989017063e-07°)
1.23026877081238e+01	(-5.92726430852411e+01dB,-8.33452853239807e-05°)	(-8.00949629205516e+01dB,9.16214223255005e-07°)
1.23310483322890e+01	(-5.92726430852411e+01dB,-8.35374160493216e-05°)	(-8.00949629205516e+01dB,9.18326315171487e-07°)
1.23594743344450e+01	(-5.92726430852414e+01dB,-8.37299896817310e-05°)	(-8.00949629205516e+01dB,9.20443275959123e-07°)
1.23879658653036e+01	(-5.92726430852413e+01dB,-8.39230072422053e-05°)	(-8.00949629205516e+01dB,9.22565116848815e-07°)
1.24165230759240e+01	(-5.92726430852413e+01dB,-8.41164697541108e-05°)	(-8.00949629205516e+01dB,9.24691849085250e-07°)
1.24451461177138e+01	(-5.92726430852415e+01dB,-8.43103782431686e-05°)	(-8.00949629205516e+01dB,9.26823483943746e-07°)
1.24738351424294e+01	(-5.92726430852414e+01dB,-8.45047337374558e-05°)	(-8.00949629205516e+01dB,9.28960032731783e-07°)
1.25025903021771e+01	(-5.92726430852415e+01dB,-8.46995372674284e-05°)	(-8.00949629205516e+01dB,9.31101506772156e-07°)
1.25314117494141e+01	(-5.92726430852416e+01dB,-8.48947898659186e-05°)	(-8.00949629205516e+01dB,9.33247917418293e-07°)
1.25602996369487e+01	(-5.92726430852416e+01dB,-8.50904925681324e-05°)	(-8.00949629205516e+01dB,9.35399276054251e-07°)
1.25892541179416e+01	(-5.92726430852417e+01dB,-8.52866464116655e-05°)	(-8.00949629205516e+01dB,9.37555594085532e-07°)
1.26182753459066e+01	(-5.92726430852417e+01dB,-8.54832524365103e-05°)	(-8.00949629205516e+01dB,9.39716882940607e-07°)
1.26473634747114e+01	(-5.92726430852417e+01dB,-8.56803116850482e-05°)	(-8.00949629205516e+01dB,9.41883154083177e-07°)
1.26765186585784e+01	(-5.92726430852418e+01dB,-8.58778252020709e-05°)	(-8.00949629205516e+01dB,9.44054418993787e-07°)
1.27057410520853e+01	(-5.92726430852419e+01dB,-8.60757940347749e-05°)	(-8.00949629205516e+01dB,9.46230689186678e-07°)
1.27350308101665e+01	(-5.92726430852417e+01dB,-8.62742192327676e-05°)	(-8.00949629205516e+01dB,9.48411976203658e-07°)
1.27643880881134e+01	(-5.92726430852420e+01dB,-8.64731018480854e-05°)	(-8.00949629205516e+01dB,9.50598291603383e-07°)
1.27938130415752e+01	(-5.92726430852419e+01dB,-8.66724429351771e-05°)	(-8.00949629205516e+01dB,9.52789646984328e-07°)
1.28233058265601e+01	(-5.92726430852420e+01dB,-8.68722435509377e-05°)	(-8.00949629205516e+01dB,9.54986053955691e-07°)
1.28528665994361e+01	(-5.92726430852422e+01dB,-8.70725047546832e-05°)	(-8.00949629205516e+01dB,9.57187524172616e-07°)
1.28824955169313e+01	(-5.92726430852425e+01dB,-8.72732276081848e-05°)	(-8.00949629205538e+01dB,9.59394069299672e-07°)
1.29121927361353e+01	(-5.92726430852424e+01dB,-8.74744131756460e-05°)	(-8.00949629205538e+01dB,9.61605701040540e-07°)
1.29419584144998e+01	(-5.92726430852423e+01dB,-8.76760625237398e-05°)	(-8.00949629205516e+01dB,9.63822431116217e-07°)
1.29717927098395e+01	(-5.92726430852423e+01dB,-8.78781767215893e-05°)	(-8.00949629205516e+01dB,9.66044271286470e-07°)
1.30016957803328e+01	(-5.92726430852423e+01dB,-8.80807568407817e-05°)	(-8.00949629205516e+01dB,9.68271233327197e-07°)
1.30316677845229e+01	(-5.92726430852424e+01dB,-8.82838039553815e-05°)	(-8.00949629205516e+01dB,9.70503329043634e-07°)
1.30617088813183e+01	(-5.92726430852424e+01dB,-8.84873191419217e-05°)	(-8.00949629205516e+01dB,9.72740570271649e-07°)
1.30918192299940e+01	(-5.92726430852425e+01dB,-8.86913034794178e-05°)	(-8.00949629205516e+01dB,9.74982968874678e-07°)
1.31219989901919e+01	(-5.92726430852426e+01dB,-8.88957580493773e-05°)	(-8.00949629205516e+01dB,9.77230536740659e-07°)
1.31522483219223e+01	(-5.92726430852425e+01dB,-8.91006839357943e-05°)	(-8.00949629205516e+01dB,9.79483285785101e-07°)
1.31825673855640e+01	(-5.92726430852428e+01dB,-8.93060822251710e-05°)	(-8.00949629205516e+01dB,9.81741227952612e-07°)
1.32129563418657e+01	(-5.92726430852426e+01dB,-8.95119540065035e-05°)	(-8.00949629205516e+01dB,9.84004375213837e-07°)
1.32434153519466e+01	(-5.92726430852427e+01dB,-8.97183003713050e-05°)	(-8.00949629205516e+01dB,9.86272739568519e-07°)
1.32739445772973e+01	(-5.92726430852428e+01dB,-8.99251224136075e-05°)	(-8.00949629205516e+01dB,9.88546333040907e-07°)
1.33045441797808e+01	(-5.92726430852430e+01dB,-9.01324212299562e-05°)	(-8.00949629205516e+01dB,9.90825167688943e-07°)
1.33352143216332e+01	(-5.92726430852430e+01dB,-9.03401979194252e-05°)	(-8.00949629205516e+01dB,9.93109255596607e-07°)
1.33659551654643e+01	(-5.92726430852429e+01dB,-9.05484535836326e-05°)	(-8.00949629205516e+01dB,9.95398608867789e-07°)
1.33967668742593e+01	(-5.92726430852431e+01dB,-9.07571893267294e-05°)	(-8.00949629205516e+01dB,9.97693239643136e-07°)
1.34276496113785e+01	(-5.92726430852431e+01dB,-9.09664062554090e-05°)	(-8.00949629205516e+01dB,9.99993160089331e-07°)
1.34586035405594e+01	(-5.92726430852431e+01dB,-9.11761054789173e-05°)	(-8.00949629205516e+01dB,1.00229838240063e-06°)
1.34896288259164e+01	(-5.92726430852432e+01dB,-9.13862881090615e-05°)	(-8.00949629205516e+01dB,1.00460891879578e-06°)
1.35207256319427e+01	(-5.92726430852433e+01dB,-9.15969552602077e-05°)	(-8.00949629205516e+01dB,1.00692478153030e-06°)
1.35518941235103e+01	(-5.92726430852432e+01dB,-9.18081080492921e-05°)	(-8.00949629205516e+01dB,1.00924598287808e-06°)
1.35831344658714e+01	(-5.92726430852434e+01dB,-9.20197475958284e-05°)	(-8.00949629205516e+01dB,1.01157253514671e-06°)
1.36144468246594e+01	(-5.92726430852434e+01dB,-9.22318750219051e-05°)	(-8.00949629205516e+01dB,1.01390445067287e-06°)
1.36458313658891e+01	(-5.92726430852435e+01dB,-9.24444914522017e-05°)	(-8.00949629205516e+01dB,1.01624174181929e-06°)
1.36772882559584e+01	(-5.92726430852436e+01dB,-9.26575980139902e-05°)	(-8.00949629205516e+01dB,1.01858442097780e-06°)
1.37088176616484e+01	(-5.92726430852438e+01dB,-9.28711958371379e-05°)	(-8.00949629205516e+01dB,1.02093250056930e-06°)
1.37404197501251e+01	(-5.92726430852436e+01dB,-9.30852860541201e-05°)	(-8.00949629205516e+01dB,1.02328599304689e-06°)
1.37720946889394e+01	(-5.92726430852437e+01dB,-9.32998698000224e-05°)	(-8.00949629205516e+01dB,1.02564491088356e-06°)
1.38038426460287e+01	(-5.92726430852439e+01dB,-9.35149482125512e-05°)	(-8.00949629205516e+01dB,1.02800926658293e-06°)
1.38356637897177e+01	(-5.92726430852439e+01dB,-9.37305224320214e-05°)	(-8.00949629205516e+01dB,1.03037907269152e-06°)
1.38675582887188e+01	(-5.92726430852440e+01dB,-9.39465936013916e-05°)	(-8.00949629205516e+01dB,1.03275434176503e-06°)
1.38995263121334e+01	(-5.92726430852439e+01dB,-9.41631628662492e-05°)	(-8.00949629205516e+01dB,1.03513508640050e-06°)
1.39315680294529e+01	(-5.92726430852440e+01dB,-9.43802313748233e-05°)	(-8.00949629205516e+01dB,1.03752131921796e-06°)
1.39636836105593e+01	(-5.92726430852441e+01dB,-9.45978002779914e-05°)	(-8.00949629205516e+01dB,1.03991305286653e-06°)
1.39958732257261e+01	(-5.92726430852441e+01dB,-9.48158707292748e-05°)	(-8.00949629205516e+01dB,1.04231030003670e-06°)
1.40281370456195e+01	(-5.92726430852443e+01dB,-9.50344438848702e-05°)	(-8.00949629205516e+01dB,1.04471307342811e-06°)
1.40604752412990e+01	(-5.92726430852442e+01dB,-9.52535209036247e-05°)	(-8.00949629205516e+01dB,1.04712138578486e-06°)
1.40928879842186e+01	(-5.92726430852444e+01dB,-9.54731029470667e-05°)	(-8.00949629205516e+01dB,1.04953524987400e-06°)
1.41253754462274e+01	(-5.92726430852444e+01dB,-9.56931911793942e-05°)	(-8.00949629205516e+01dB,1.05195467849627e-06°)
1.41579377995707e+01	(-5.92726430852445e+01dB,-9.59137867674956e-05°)	(-8.00949629205516e+01dB,1.05437968447846e-06°)
1.41905752168908e+01	(-5.92726430852446e+01dB,-9.61348908809484e-05°)	(-8.00949629205516e+01dB,1.05681028067492e-06°)
1.42232878712281e+01	(-5.92726430852447e+01dB,-9.63565046920216e-05°)	(-8.00949629205516e+01dB,1.05924647997370e-06°)
1.42560759360218e+01	(-5.92726430852446e+01dB,-9.65786293756890e-05°)	(-8.00949629205516e+01dB,1.06168829529654e-06°)
1.42889395851109e+01	(-5.92726430852447e+01dB,-9.68012661096375e-05°)	(-8.00949629205516e+01dB,1.06413573957896e-06°)
1.43218789927353e+01	(-5.92726430852447e+01dB,-9.70244160742617e-05°)	(-8.00949629205516e+01dB,1.06658882580703e-06°)
1.43548943335364e+01	(-5.92726430852448e+01dB,-9.72480804526792e-05°)	(-8.00949629205516e+01dB,1.06904756698367e-06°)
1.43879857825583e+01	(-5.92726430852449e+01dB,-9.74722604307426e-05°)	(-8.00949629205516e+01dB,1.07151197614088e-06°)
1.44211535152486e+01	(-5.92726430852450e+01dB,-9.76969571970270e-05°)	(-8.00949629205516e+01dB,1.07398206634896e-06°)
1.44543977074592e+01	(-5.92726430852451e+01dB,-9.79221719428515e-05°)	(-8.00949629205516e+01dB,1.07645785070427e-06°)
1.44877185354475e+01	(-5.92726430852450e+01dB,-9.81479058622842e-05°)	(-8.00949629205516e+01dB,1.07893934232916e-06°)
1.45211161758773e+01	(-5.92726430852451e+01dB,-9.83741601521439e-05°)	(-8.00949629205516e+01dB,1.08142655438430e-06°)
1.45545908058195e+01	(-5.92726430852451e+01dB,-9.86009360120052e-05°)	(-8.00949629205516e+01dB,1.08391950005946e-06°)
1.45881426027534e+01	(-5.92726430852453e+01dB,-9.88282346442178e-05°)	(-8.00949629205516e+01dB,1.08641819256278e-06°)
1.46217717445671e+01	(-5.92726430852453e+01dB,-9.90560572538911e-05°)	(-8.00949629205516e+01dB,1.08892264514835e-06°)
1.46554784095590e+01	(-5.92726430852455e+01dB,-9.92844050489208e-05°)	(-8.00949629205516e+01dB,1.09143287109169e-06°)
